
T2714 000:579 SEGGER J-Link V5.02c Log File (0002ms, 0279ms total)
T2714 000:579 DLL Compiled: Sep 10 2015 17:39:31 (0002ms, 0279ms total)
T2714 000:579 Logging started @ 2020-07-02 10:40 (0002ms, 0279ms total)
T2714 000:581 JLINK_SetWarnOutHandler(...) (0000ms, 0279ms total)
T2714 000:581 JLINK_OpenEx(...)
Firmware: J-Link V10 compiled Apr 16 2020 17:17:24
Hardware: V10.10
S/N: 260105158
OEM: SEGGER-EDU
Feature(s): FlashBP, GDB  returns O.K. (0274ms, 0553ms total)
T2714 000:855 JLINK_SetErrorOutHandler(...) (0000ms, 0553ms total)
T2714 000:855 JLINK_ExecCommand("ProjectFile = "D:\BLE\qingfengBLE_page\codeing\·À¶ªÆ÷\examples\ble_peripheral\ble_app_proximity\pca10040\s132\arm4\JLinkSettings.ini"", ...)  returns 0x00 (0000ms, 0553ms total)
T2714 000:857 JLINK_ExecCommand("Device = nRF52832_xxAA", ...)Device "NRF52832_XXAA" selected.  returns 0x00 (0002ms, 0555ms total)
T2714 000:859 JLINK_ExecCommand("DisableConnectionTimeout", ...)  returns 0x01 (0000ms, 0555ms total)
T2714 000:859 JLINK_GetHardwareVersion()  returns 0x18A88 (0000ms, 0555ms total)
T2714 000:859 JLINK_GetDLLVersion()  returns 50203 (0000ms, 0555ms total)
T2714 000:895 JLINK_GetDLLVersion()  returns 50203 (0000ms, 0555ms total)
T2714 000:895 JLINK_GetCompileDateTime() (0000ms, 0555ms total)
T2714 000:899 JLINK_GetFirmwareString(...) (0000ms, 0555ms total)
T2714 000:902 JLINK_GetHardwareVersion()  returns 0x18A88 (0000ms, 0555ms total)
T2714 000:915 JLINK_TIF_Select(JLINKARM_TIF_SWD)  returns 0x00 (0001ms, 0556ms total)
T2714 000:916 JLINK_SetSpeed(5000) (0000ms, 0556ms total)
T2714 000:916 JLINK_GetId() >0x108 TIF>Found SWD-DP with ID 0x2BA01477 >0x35 TIF> >0x0D TIF> >0x28 TIF> >0x0D TIF> >0x28 TIF> >0x35 TIF> >0x0D TIF> >0x28 TIF> >0x35 TIF> >0x35 TIF> >0x35 TIF> >0x35 TIF> >0x0D TIF> >0x28 TIF> >0x0D TIF> >0x28 TIF> >0x35 TIF> >0x0D TIF> >0x28 TIF> >0x0D TIF> >0x28 TIF> >0x0D TIF> >0x28 TIF> >0x35 TIF> >0x35 TIF> >0x0D TIF> >0x28 TIF> >0x35 TIF> >0x35 TIF>Found Cortex-M4 r0p1, Little endian. -- CPU_ReadMem(4 bytes @ 0xE000EDF0) -- CPU_WriteMem(4 bytes @ 0xE000EDF0)
 -- CPU_ReadMem(4 bytes @ 0xE0002000)FPUnit: 6 code (BP) slots and 2 literal slots -- CPU_ReadMem(4 bytes @ 0xE000EDFC) -- CPU_WriteMem(4 bytes @ 0xE000EDFC) -- CPU_ReadMem(4 bytes @ 0xE0001000) -- CPU_WriteMem(4 bytes @ 0xE0001000) -- CPU_ReadMem(4 bytes @ 0xE000ED88) -- CPU_WriteMem(4 bytes @ 0xE000ED88) -- CPU_ReadMem(4 bytes @ 0xE000ED88) -- CPU_WriteMem(4 bytes @ 0xE000ED88)CoreSight components:ROMTbl 0 @ E00FF000 -- CPU_ReadMem(16 bytes @ 0xE00FF000) -- CPU_ReadMem(16 bytes @ 0xE000EFF0)
 -- CPU_ReadMem(16 bytes @ 0xE000EFE0)ROMTbl 0 [0]: FFF0F000, CID: B105E00D, PID: 000BB00C SCS -- CPU_ReadMem(16 bytes @ 0xE0001FF0) -- CPU_ReadMem(16 bytes @ 0xE0001FE0)ROMTbl 0 [1]: FFF02000, CID: B105E00D, PID: 003BB002 DWT -- CPU_ReadMem(16 bytes @ 0xE0002FF0) -- CPU_ReadMem(16 bytes @ 0xE0002FE0)ROMTbl 0 [2]: FFF03000, CID: B105E00D, PID: 002BB003 FPB -- CPU_ReadMem(16 bytes @ 0xE0000FF0) -- CPU_ReadMem(16 bytes @ 0xE0000FE0)ROMTbl 0 [3]: FFF01000, CID: B105E00D, PID: 003BB001 ITM
 -- CPU_ReadMem(16 bytes @ 0xE00FF010) -- CPU_ReadMem(16 bytes @ 0xE0040FF0) -- CPU_ReadMem(16 bytes @ 0xE0040FE0)ROMTbl 0 [4]: FFF41000, CID: B105900D, PID: 000BB9A1 TPIU -- CPU_ReadMem(16 bytes @ 0xE0041FF0) -- CPU_ReadMem(16 bytes @ 0xE0041FE0)ROMTbl 0 [5]: FFF42000, CID: B105900D, PID: 000BB925 ETM >0x35 TIF>  returns 0x2BA01477 (0058ms, 0614ms total)
T2714 000:974 JLINK_GetDLLVersion()  returns 50203 (0000ms, 0614ms total)
T2714 000:974 JLINK_CORE_GetFound()  returns 0xE0000FF (0000ms, 0614ms total)
T2714 000:974 JLINK_GetDebugInfo(0x100) -- Value=0xE00FF003  returns 0x00 (0000ms, 0614ms total)
T2714 000:977 JLINK_GetDebugInfo(0x100) -- Value=0xE00FF003  returns 0x00 (0000ms, 0614ms total)
T2714 000:977 JLINK_GetDebugInfo(0x101)  returns 0xFFFFFFFF (0000ms, 0614ms total)
T2714 000:977 JLINK_ReadMem (0xE0041FF0, 0x0010 Bytes, ...) -- CPU is running -- CPU_ReadMem(16 bytes @ 0xE0041FF0) - Data: 0D 00 00 00 90 00 00 00 05 00 00 00 B1 00 00 00  returns 0x00 (0000ms, 0614ms total)
T2714 000:977 JLINK_GetDebugInfo(0x102)  returns 0xFFFFFFFF (0000ms, 0614ms total)
T2714 000:977 JLINK_GetDebugInfo(0x103)  returns 0xFFFFFFFF (0000ms, 0614ms total)
T2714 000:977 JLINK_ReadMem (0xE0040FF0, 0x0010 Bytes, ...) -- CPU is running -- CPU_ReadMem(16 bytes @ 0xE0040FF0) - Data: 0D 00 00 00 90 00 00 00 05 00 00 00 B1 00 00 00  returns 0x00 (0001ms, 0615ms total)
T2714 000:978 JLINK_GetDebugInfo(0x104)  returns 0xFFFFFFFF (0000ms, 0615ms total)
T2714 000:978 JLINK_GetDebugInfo(0x105)  returns 0xFFFFFFFF (0000ms, 0615ms total)
T2714 000:978 JLINK_GetDebugInfo(0x106)  returns 0xFFFFFFFF (0000ms, 0615ms total)
T2714 000:978 JLINK_GetDebugInfo(0x107)  returns 0xFFFFFFFF (0000ms, 0615ms total)
T2714 000:978 JLINK_GetDebugInfo(0x10C)  returns 0xFFFFFFFF (0000ms, 0615ms total)
T2714 000:978 JLINK_ReadMemU32(0xE000EF40, 0x0001 Items, ...) -- CPU is running -- CPU_ReadMem(4 bytes @ 0xE000EF40) - Data: 21 00 11 10  returns 0x01 (0000ms, 0615ms total)
T2714 000:978 JLINK_ReadMemU32(0xE000EF44, 0x0001 Items, ...) -- CPU is running -- CPU_ReadMem(4 bytes @ 0xE000EF44) - Data: 11 00 00 11  returns 0x01 (0000ms, 0615ms total)
T2714 000:978 JLINK_ReadMemU32(0xE000ED00, 0x0001 Items, ...) -- CPU is running -- CPU_ReadMem(4 bytes @ 0xE000ED00) - Data: 41 C2 0F 41  returns 0x01 (0001ms, 0616ms total)
T2714 000:979 JLINK_SetResetType(JLINKARM_RESET_TYPE_NORMAL)  returns JLINKARM_RESET_TYPE_NORMAL (0000ms, 0616ms total)
T2714 000:979 JLINK_Reset() -- CPU is running -- CPU_WriteMem(4 bytes @ 0xE000EDF0) -- CPU is running -- CPU_WriteMem(4 bytes @ 0xE000EDFC) >0x35 TIF> -- CPU is running -- CPU_WriteMem(4 bytes @ 0xE000ED0C) -- CPU is running -- CPU_ReadMem(4 bytes @ 0xE000EDF0) -- CPU is running -- CPU_ReadMem(4 bytes @ 0xE000EDF0) -- CPU is running -- CPU_WriteMem(4 bytes @ 0xE000EDF0) -- CPU is running -- CPU_WriteMem(4 bytes @ 0xE000EDFC) -- CPU is running -- CPU_ReadMem(4 bytes @ 0xE000EDF0)
 -- CPU_WriteMem(4 bytes @ 0xE0002000) -- CPU_ReadMem(4 bytes @ 0xE000EDFC) -- CPU_ReadMem(4 bytes @ 0xE0001000) (0015ms, 0631ms total)
T2714 000:994 JLINK_Halt()  returns 0x00 (0000ms, 0631ms total)
T2714 000:994 JLINK_IsHalted()  returns TRUE (0000ms, 0631ms total)
T2714 000:994 JLINK_ReadMemU32(0xE000EDF0, 0x0001 Items, ...) -- CPU_ReadMem(4 bytes @ 0xE000EDF0) - Data: 03 00 03 00  returns 0x01 (0000ms, 0631ms total)
T2714 000:994 JLINK_WriteU32(0xE000EDF0, 0xA05F0003) -- CPU_WriteMem(4 bytes @ 0xE000EDF0)  returns 0x00 (0000ms, 0631ms total)
T2714 000:994 JLINK_WriteU32(0xE000EDFC, 0x01000000) -- CPU_WriteMem(4 bytes @ 0xE000EDFC)  returns 0x00 (0001ms, 0632ms total)
T2714 001:005 JLINK_GetHWStatus(...)  returns 0x00 (0000ms, 0632ms total)
T2714 001:013 JLINK_GetNumBPUnits(Type = 0xFFFFFF00)  returns 0x06 (0000ms, 0632ms total)
T2714 001:013 JLINK_GetNumBPUnits(Type = 0xF0)  returns 0x2000 (0000ms, 0632ms total)
T2714 001:013 JLINK_GetNumWPUnits()  returns 0x04 (0000ms, 0632ms total)
T2714 001:020 JLINK_GetSpeed()  returns 0x1388 (0000ms, 0632ms total)
T2714 001:025 JLINK_ReadMemU32(0xE000E004, 0x0001 Items, ...) -- CPU_ReadMem(4 bytes @ 0xE000E004) - Data: 01 00 00 00  returns 0x01 (0001ms, 0633ms total)
T2714 001:026 JLINK_ReadMemU32(0xE000E004, 0x0001 Items, ...) -- CPU_ReadMem(4 bytes @ 0xE000E004) - Data: 01 00 00 00  returns 0x01 (0000ms, 0633ms total)
T2714 001:026 JLINK_WriteMem(0xE0001000, 0x001C Bytes, ...) - Data: 01 00 00 00 00 00 00 00 00 00 00 00 00 00 00 00 ... -- CPU_WriteMem(28 bytes @ 0xE0001000)  returns 0x1C (0001ms, 0634ms total)
T2714 001:027 JLINK_ReadMem (0xE0001000, 0x001C Bytes, ...) -- CPU_ReadMem(28 bytes @ 0xE0001000) - Data: 01 00 00 40 00 00 00 00 00 00 00 00 00 00 00 00 ...  returns 0x00 (0001ms, 0635ms total)
T2714 001:028 JLINK_Halt()  returns 0x00 (0000ms, 0635ms total)
T2714 001:028 JLINK_IsHalted()  returns TRUE (0000ms, 0635ms total)
T2714 001:030 JLINK_WriteMem(0x20000000, 0x0228 Bytes, ...) - Data: 00 BE 0A E0 0D 78 2D 06 68 40 08 24 40 00 00 D3 ... -- CPU_WriteMem(552 bytes @ 0x20000000)  returns 0x228 (0003ms, 0638ms total)
T2714 001:033 JLINK_WriteReg(R0, 0x00000000)  returns 0x00 (0000ms, 0638ms total)
T2714 001:033 JLINK_WriteReg(R1, 0x03D09000)  returns 0x00 (0000ms, 0638ms total)
T2714 001:033 JLINK_WriteReg(R2, 0x00000001)  returns 0x00 (0000ms, 0638ms total)
T2714 001:033 JLINK_WriteReg(R3, 0x00000000)  returns 0x00 (0000ms, 0638ms total)
T2714 001:033 JLINK_WriteReg(R4, 0x00000000)  returns 0x00 (0000ms, 0638ms total)
T2714 001:033 JLINK_WriteReg(R5, 0x00000000)  returns 0x00 (0000ms, 0638ms total)
T2714 001:033 JLINK_WriteReg(R6, 0x00000000)  returns 0x00 (0000ms, 0638ms total)
T2714 001:033 JLINK_WriteReg(R7, 0x00000000)  returns 0x00 (0000ms, 0638ms total)
T2714 001:033 JLINK_WriteReg(R8, 0x00000000)  returns 0x00 (0000ms, 0638ms total)
T2714 001:033 JLINK_WriteReg(R9, 0x20000224)  returns 0x00 (0000ms, 0638ms total)
T2714 001:033 JLINK_WriteReg(R10, 0x00000000)  returns 0x00 (0000ms, 0638ms total)
T2714 001:033 JLINK_WriteReg(R11, 0x00000000)  returns 0x00 (0000ms, 0638ms total)
T2714 001:033 JLINK_WriteReg(R12, 0x00000000)  returns 0x00 (0000ms, 0638ms total)
T2714 001:033 JLINK_WriteReg(R13 (SP), 0x20002000)  returns 0x00 (0000ms, 0638ms total)
T2714 001:034 JLINK_WriteReg(R14, 0x20000001)  returns 0x00 (0000ms, 0638ms total)
T2714 001:034 JLINK_WriteReg(R15 (PC), 0x2000003C)  returns 0x00 (0000ms, 0638ms total)
T2714 001:034 JLINK_WriteReg(XPSR, 0x01000000)  returns 0x00 (0000ms, 0638ms total)
T2714 001:034 JLINK_WriteReg(MSP, 0x20002000)  returns 0x00 (0000ms, 0638ms total)
T2714 001:034 JLINK_WriteReg(PSP, 0x20002000)  returns 0x00 (0000ms, 0638ms total)
T2714 001:034 JLINK_WriteReg(CFBP, 0x00000000)  returns 0x00 (0000ms, 0638ms total)
T2714 001:034 JLINK_SetBPEx(Addr = 0x20000000, Type = 0xFFFFFFF2) -- CPU_ReadMem(2 bytes @ 0x20000000)  returns 0x00000001 (0000ms, 0638ms total)
T2714 001:034 JLINK_Go() -- CPU_WriteMem(2 bytes @ 0x20000000) -- CPU_ReadMem(4 bytes @ 0xE0001000) -- CPU_WriteMem(4 bytes @ 0xE0002008) -- CPU_WriteMem(4 bytes @ 0xE000200C) -- CPU_WriteMem(4 bytes @ 0xE0002010) -- CPU_WriteMem(4 bytes @ 0xE0002014) -- CPU_WriteMem(4 bytes @ 0xE0002018) -- CPU_WriteMem(4 bytes @ 0xE000201C) -- CPU_WriteMem(4 bytes @ 0xE0001004) (0003ms, 0641ms total)
T2714 001:037 JLINK_IsHalted() -- CPU_ReadMem(2 bytes @ 0x20000000)  returns TRUE (0002ms, 0643ms total)
T2714 001:039 JLINK_ReadReg(R15 (PC))  returns 0x20000000 (0000ms, 0641ms total)
T2714 001:039 JLINK_ClrBPEx(BPHandle = 0x00000001)  returns 0x00 (0000ms, 0641ms total)
T2714 001:039 JLINK_ReadReg(R0)  returns 0x00000000 (0000ms, 0641ms total)
T2714 001:040 JLINK_WriteReg(R0, 0x0001C000)  returns 0x00 (0000ms, 0641ms total)
T2714 001:040 JLINK_WriteReg(R1, 0x00001000)  returns 0x00 (0000ms, 0641ms total)
T2714 001:040 JLINK_WriteReg(R2, 0x000000FF)  returns 0x00 (0000ms, 0641ms total)
T2714 001:040 JLINK_WriteReg(R3, 0x00000000)  returns 0x00 (0000ms, 0641ms total)
T2714 001:040 JLINK_WriteReg(R4, 0x00000000)  returns 0x00 (0000ms, 0641ms total)
T2714 001:040 JLINK_WriteReg(R5, 0x00000000)  returns 0x00 (0000ms, 0641ms total)
T2714 001:040 JLINK_WriteReg(R6, 0x00000000)  returns 0x00 (0000ms, 0641ms total)
T2714 001:040 JLINK_WriteReg(R7, 0x00000000)  returns 0x00 (0000ms, 0641ms total)
T2714 001:040 JLINK_WriteReg(R8, 0x00000000)  returns 0x00 (0000ms, 0641ms total)
T2714 001:040 JLINK_WriteReg(R9, 0x20000224)  returns 0x00 (0000ms, 0641ms total)
T2714 001:040 JLINK_WriteReg(R10, 0x00000000)  returns 0x00 (0000ms, 0641ms total)
T2714 001:040 JLINK_WriteReg(R11, 0x00000000)  returns 0x00 (0000ms, 0641ms total)
T2714 001:040 JLINK_WriteReg(R12, 0x00000000)  returns 0x00 (0000ms, 0641ms total)
T2714 001:040 JLINK_WriteReg(R13 (SP), 0x20002000)  returns 0x00 (0000ms, 0641ms total)
T2714 001:040 JLINK_WriteReg(R14, 0x20000001)  returns 0x00 (0000ms, 0641ms total)
T2714 001:040 JLINK_WriteReg(R15 (PC), 0x20000110)  returns 0x00 (0000ms, 0641ms total)
T2714 001:040 JLINK_WriteReg(XPSR, 0x01000000)  returns 0x00 (0000ms, 0641ms total)
T2714 001:040 JLINK_WriteReg(MSP, 0x20002000)  returns 0x00 (0000ms, 0641ms total)
T2714 001:040 JLINK_WriteReg(PSP, 0x20002000)  returns 0x00 (0000ms, 0641ms total)
T2714 001:040 JLINK_WriteReg(CFBP, 0x00000000)  returns 0x00 (0000ms, 0641ms total)
T2714 001:040 JLINK_SetBPEx(Addr = 0x20000000, Type = 0xFFFFFFF2)  returns 0x00000002 (0000ms, 0641ms total)
T2714 001:040 JLINK_Go() -- CPU_ReadMem(4 bytes @ 0xE0001000) (0001ms, 0642ms total)
T2714 001:041 JLINK_IsHalted()  returns FALSE (0001ms, 0643ms total)
T2714 001:099 JLINK_IsHalted() -- CPU_ReadMem(2 bytes @ 0x20000000)  returns TRUE (0002ms, 0644ms total)
T2714 001:101 JLINK_ReadReg(R15 (PC))  returns 0x20000000 (0000ms, 0642ms total)
T2714 001:101 JLINK_ClrBPEx(BPHandle = 0x00000002)  returns 0x00 (0000ms, 0642ms total)
T2714 001:101 JLINK_ReadReg(R0)  returns 0x00000000 (0000ms, 0642ms total)
T2714 001:102 JLINK_WriteReg(R0, 0x0001D000)  returns 0x00 (0000ms, 0642ms total)
T2714 001:102 JLINK_WriteReg(R1, 0x00001000)  returns 0x00 (0000ms, 0642ms total)
T2714 001:102 JLINK_WriteReg(R2, 0x000000FF)  returns 0x00 (0000ms, 0642ms total)
T2714 001:102 JLINK_WriteReg(R3, 0x00000000)  returns 0x00 (0000ms, 0642ms total)
T2714 001:102 JLINK_WriteReg(R4, 0x00000000)  returns 0x00 (0000ms, 0642ms total)
T2714 001:102 JLINK_WriteReg(R5, 0x00000000)  returns 0x00 (0000ms, 0642ms total)
T2714 001:102 JLINK_WriteReg(R6, 0x00000000)  returns 0x00 (0000ms, 0642ms total)
T2714 001:102 JLINK_WriteReg(R7, 0x00000000)  returns 0x00 (0000ms, 0642ms total)
T2714 001:102 JLINK_WriteReg(R8, 0x00000000)  returns 0x00 (0000ms, 0642ms total)
T2714 001:102 JLINK_WriteReg(R9, 0x20000224)  returns 0x00 (0000ms, 0642ms total)
T2714 001:102 JLINK_WriteReg(R10, 0x00000000)  returns 0x00 (0000ms, 0642ms total)
T2714 001:102 JLINK_WriteReg(R11, 0x00000000)  returns 0x00 (0000ms, 0642ms total)
T2714 001:102 JLINK_WriteReg(R12, 0x00000000)  returns 0x00 (0000ms, 0642ms total)
T2714 001:102 JLINK_WriteReg(R13 (SP), 0x20002000)  returns 0x00 (0000ms, 0642ms total)
T2714 001:102 JLINK_WriteReg(R14, 0x20000001)  returns 0x00 (0000ms, 0642ms total)
T2714 001:102 JLINK_WriteReg(R15 (PC), 0x20000110)  returns 0x00 (0000ms, 0642ms total)
T2714 001:102 JLINK_WriteReg(XPSR, 0x01000000)  returns 0x00 (0000ms, 0642ms total)
T2714 001:102 JLINK_WriteReg(MSP, 0x20002000)  returns 0x00 (0000ms, 0642ms total)
T2714 001:102 JLINK_WriteReg(PSP, 0x20002000)  returns 0x00 (0000ms, 0642ms total)
T2714 001:102 JLINK_WriteReg(CFBP, 0x00000000)  returns 0x00 (0000ms, 0642ms total)
T2714 001:102 JLINK_SetBPEx(Addr = 0x20000000, Type = 0xFFFFFFF2)  returns 0x00000003 (0000ms, 0642ms total)
T2714 001:102 JLINK_Go() -- CPU_ReadMem(4 bytes @ 0xE0001000) (0002ms, 0644ms total)
T2714 001:104 JLINK_IsHalted()  returns FALSE (0000ms, 0644ms total)
T2714 001:109 JLINK_IsHalted() -- CPU_ReadMem(2 bytes @ 0x20000000)  returns TRUE (0002ms, 0646ms total)
T2714 001:111 JLINK_ReadReg(R15 (PC))  returns 0x20000000 (0000ms, 0644ms total)
T2714 001:111 JLINK_ClrBPEx(BPHandle = 0x00000003)  returns 0x00 (0000ms, 0644ms total)
T2714 001:111 JLINK_ReadReg(R0)  returns 0x00000000 (0000ms, 0644ms total)
T2714 001:111 JLINK_WriteReg(R0, 0x0001E000)  returns 0x00 (0000ms, 0644ms total)
T2714 001:111 JLINK_WriteReg(R1, 0x00001000)  returns 0x00 (0000ms, 0644ms total)
T2714 001:111 JLINK_WriteReg(R2, 0x000000FF)  returns 0x00 (0000ms, 0644ms total)
T2714 001:111 JLINK_WriteReg(R3, 0x00000000)  returns 0x00 (0000ms, 0644ms total)
T2714 001:111 JLINK_WriteReg(R4, 0x00000000)  returns 0x00 (0000ms, 0644ms total)
T2714 001:111 JLINK_WriteReg(R5, 0x00000000)  returns 0x00 (0000ms, 0644ms total)
T2714 001:111 JLINK_WriteReg(R6, 0x00000000)  returns 0x00 (0000ms, 0644ms total)
T2714 001:111 JLINK_WriteReg(R7, 0x00000000)  returns 0x00 (0000ms, 0644ms total)
T2714 001:111 JLINK_WriteReg(R8, 0x00000000)  returns 0x00 (0000ms, 0644ms total)
T2714 001:111 JLINK_WriteReg(R9, 0x20000224)  returns 0x00 (0001ms, 0645ms total)
T2714 001:112 JLINK_WriteReg(R10, 0x00000000)  returns 0x00 (0000ms, 0645ms total)
T2714 001:112 JLINK_WriteReg(R11, 0x00000000)  returns 0x00 (0000ms, 0645ms total)
T2714 001:112 JLINK_WriteReg(R12, 0x00000000)  returns 0x00 (0000ms, 0645ms total)
T2714 001:112 JLINK_WriteReg(R13 (SP), 0x20002000)  returns 0x00 (0000ms, 0645ms total)
T2714 001:112 JLINK_WriteReg(R14, 0x20000001)  returns 0x00 (0000ms, 0645ms total)
T2714 001:112 JLINK_WriteReg(R15 (PC), 0x20000110)  returns 0x00 (0000ms, 0645ms total)
T2714 001:112 JLINK_WriteReg(XPSR, 0x01000000)  returns 0x00 (0000ms, 0645ms total)
T2714 001:112 JLINK_WriteReg(MSP, 0x20002000)  returns 0x00 (0000ms, 0645ms total)
T2714 001:112 JLINK_WriteReg(PSP, 0x20002000)  returns 0x00 (0000ms, 0645ms total)
T2714 001:112 JLINK_WriteReg(CFBP, 0x00000000)  returns 0x00 (0000ms, 0645ms total)
T2714 001:112 JLINK_SetBPEx(Addr = 0x20000000, Type = 0xFFFFFFF2)  returns 0x00000004 (0000ms, 0645ms total)
T2714 001:112 JLINK_Go() -- CPU_ReadMem(4 bytes @ 0xE0001000) (0001ms, 0646ms total)
T2714 001:113 JLINK_IsHalted()  returns FALSE (0000ms, 0646ms total)
T2714 001:115 JLINK_IsHalted() -- CPU_ReadMem(2 bytes @ 0x20000000)  returns TRUE (0002ms, 0648ms total)
T2714 001:117 JLINK_ReadReg(R15 (PC))  returns 0x20000000 (0000ms, 0646ms total)
T2714 001:117 JLINK_ClrBPEx(BPHandle = 0x00000004)  returns 0x00 (0000ms, 0646ms total)
T2714 001:117 JLINK_ReadReg(R0)  returns 0x00000000 (0000ms, 0646ms total)
T2714 001:117 JLINK_WriteReg(R0, 0x0001F000)  returns 0x00 (0000ms, 0646ms total)
T2714 001:117 JLINK_WriteReg(R1, 0x00001000)  returns 0x00 (0000ms, 0646ms total)
T2714 001:117 JLINK_WriteReg(R2, 0x000000FF)  returns 0x00 (0000ms, 0646ms total)
T2714 001:117 JLINK_WriteReg(R3, 0x00000000)  returns 0x00 (0000ms, 0646ms total)
T2714 001:117 JLINK_WriteReg(R4, 0x00000000)  returns 0x00 (0000ms, 0646ms total)
T2714 001:117 JLINK_WriteReg(R5, 0x00000000)  returns 0x00 (0000ms, 0646ms total)
T2714 001:117 JLINK_WriteReg(R6, 0x00000000)  returns 0x00 (0000ms, 0646ms total)
T2714 001:117 JLINK_WriteReg(R7, 0x00000000)  returns 0x00 (0000ms, 0646ms total)
T2714 001:117 JLINK_WriteReg(R8, 0x00000000)  returns 0x00 (0000ms, 0646ms total)
T2714 001:117 JLINK_WriteReg(R9, 0x20000224)  returns 0x00 (0000ms, 0646ms total)
T2714 001:117 JLINK_WriteReg(R10, 0x00000000)  returns 0x00 (0000ms, 0646ms total)
T2714 001:117 JLINK_WriteReg(R11, 0x00000000)  returns 0x00 (0000ms, 0646ms total)
T2714 001:117 JLINK_WriteReg(R12, 0x00000000)  returns 0x00 (0000ms, 0646ms total)
T2714 001:117 JLINK_WriteReg(R13 (SP), 0x20002000)  returns 0x00 (0000ms, 0646ms total)
T2714 001:117 JLINK_WriteReg(R14, 0x20000001)  returns 0x00 (0000ms, 0646ms total)
T2714 001:117 JLINK_WriteReg(R15 (PC), 0x20000110)  returns 0x00 (0000ms, 0646ms total)
T2714 001:117 JLINK_WriteReg(XPSR, 0x01000000)  returns 0x00 (0000ms, 0646ms total)
T2714 001:117 JLINK_WriteReg(MSP, 0x20002000)  returns 0x00 (0000ms, 0646ms total)
T2714 001:117 JLINK_WriteReg(PSP, 0x20002000)  returns 0x00 (0000ms, 0646ms total)
T2714 001:117 JLINK_WriteReg(CFBP, 0x00000000)  returns 0x00 (0000ms, 0646ms total)
T2714 001:117 JLINK_SetBPEx(Addr = 0x20000000, Type = 0xFFFFFFF2)  returns 0x00000005 (0000ms, 0646ms total)
T2714 001:117 JLINK_Go() -- CPU_ReadMem(4 bytes @ 0xE0001000) (0001ms, 0647ms total)
T2714 001:119 JLINK_IsHalted()  returns FALSE (0000ms, 0648ms total)
T2714 001:122 JLINK_IsHalted() -- CPU_ReadMem(2 bytes @ 0x20000000)  returns TRUE (0002ms, 0650ms total)
T2714 001:124 JLINK_ReadReg(R15 (PC))  returns 0x20000000 (0000ms, 0648ms total)
T2714 001:124 JLINK_ClrBPEx(BPHandle = 0x00000005)  returns 0x00 (0000ms, 0648ms total)
T2714 001:124 JLINK_ReadReg(R0)  returns 0x00000000 (0000ms, 0648ms total)
T2714 001:124 JLINK_WriteReg(R0, 0x00020000)  returns 0x00 (0000ms, 0648ms total)
T2714 001:124 JLINK_WriteReg(R1, 0x00001000)  returns 0x00 (0000ms, 0648ms total)
T2714 001:124 JLINK_WriteReg(R2, 0x000000FF)  returns 0x00 (0000ms, 0648ms total)
T2714 001:124 JLINK_WriteReg(R3, 0x00000000)  returns 0x00 (0000ms, 0648ms total)
T2714 001:124 JLINK_WriteReg(R4, 0x00000000)  returns 0x00 (0000ms, 0648ms total)
T2714 001:124 JLINK_WriteReg(R5, 0x00000000)  returns 0x00 (0000ms, 0648ms total)
T2714 001:124 JLINK_WriteReg(R6, 0x00000000)  returns 0x00 (0000ms, 0648ms total)
T2714 001:124 JLINK_WriteReg(R7, 0x00000000)  returns 0x00 (0000ms, 0648ms total)
T2714 001:124 JLINK_WriteReg(R8, 0x00000000)  returns 0x00 (0000ms, 0648ms total)
T2714 001:124 JLINK_WriteReg(R9, 0x20000224)  returns 0x00 (0000ms, 0648ms total)
T2714 001:124 JLINK_WriteReg(R10, 0x00000000)  returns 0x00 (0000ms, 0648ms total)
T2714 001:124 JLINK_WriteReg(R11, 0x00000000)  returns 0x00 (0000ms, 0648ms total)
T2714 001:124 JLINK_WriteReg(R12, 0x00000000)  returns 0x00 (0000ms, 0648ms total)
T2714 001:124 JLINK_WriteReg(R13 (SP), 0x20002000)  returns 0x00 (0000ms, 0648ms total)
T2714 001:124 JLINK_WriteReg(R14, 0x20000001)  returns 0x00 (0000ms, 0648ms total)
T2714 001:124 JLINK_WriteReg(R15 (PC), 0x20000110)  returns 0x00 (0000ms, 0648ms total)
T2714 001:124 JLINK_WriteReg(XPSR, 0x01000000)  returns 0x00 (0000ms, 0648ms total)
T2714 001:124 JLINK_WriteReg(MSP, 0x20002000)  returns 0x00 (0000ms, 0648ms total)
T2714 001:124 JLINK_WriteReg(PSP, 0x20002000)  returns 0x00 (0000ms, 0648ms total)
T2714 001:124 JLINK_WriteReg(CFBP, 0x00000000)  returns 0x00 (0000ms, 0648ms total)
T2714 001:124 JLINK_SetBPEx(Addr = 0x20000000, Type = 0xFFFFFFF2)  returns 0x00000006 (0000ms, 0648ms total)
T2714 001:125 JLINK_Go() -- CPU_ReadMem(4 bytes @ 0xE0001000) (0001ms, 0650ms total)
T2714 001:126 JLINK_IsHalted()  returns FALSE (0000ms, 0650ms total)
T2714 001:129 JLINK_IsHalted() -- CPU_ReadMem(2 bytes @ 0x20000000)  returns TRUE (0002ms, 0652ms total)
T2714 001:131 JLINK_ReadReg(R15 (PC))  returns 0x20000000 (0000ms, 0650ms total)
T2714 001:131 JLINK_ClrBPEx(BPHandle = 0x00000006)  returns 0x00 (0000ms, 0650ms total)
T2714 001:131 JLINK_ReadReg(R0)  returns 0x00000000 (0000ms, 0650ms total)
T2714 001:131 JLINK_WriteReg(R0, 0x00021000)  returns 0x00 (0000ms, 0650ms total)
T2714 001:131 JLINK_WriteReg(R1, 0x00001000)  returns 0x00 (0000ms, 0650ms total)
T2714 001:131 JLINK_WriteReg(R2, 0x000000FF)  returns 0x00 (0000ms, 0650ms total)
T2714 001:131 JLINK_WriteReg(R3, 0x00000000)  returns 0x00 (0000ms, 0650ms total)
T2714 001:131 JLINK_WriteReg(R4, 0x00000000)  returns 0x00 (0000ms, 0650ms total)
T2714 001:131 JLINK_WriteReg(R5, 0x00000000)  returns 0x00 (0000ms, 0650ms total)
T2714 001:131 JLINK_WriteReg(R6, 0x00000000)  returns 0x00 (0000ms, 0650ms total)
T2714 001:131 JLINK_WriteReg(R7, 0x00000000)  returns 0x00 (0000ms, 0650ms total)
T2714 001:131 JLINK_WriteReg(R8, 0x00000000)  returns 0x00 (0000ms, 0650ms total)
T2714 001:131 JLINK_WriteReg(R9, 0x20000224)  returns 0x00 (0000ms, 0650ms total)
T2714 001:131 JLINK_WriteReg(R10, 0x00000000)  returns 0x00 (0000ms, 0650ms total)
T2714 001:131 JLINK_WriteReg(R11, 0x00000000)  returns 0x00 (0000ms, 0650ms total)
T2714 001:131 JLINK_WriteReg(R12, 0x00000000)  returns 0x00 (0000ms, 0650ms total)
T2714 001:131 JLINK_WriteReg(R13 (SP), 0x20002000)  returns 0x00 (0000ms, 0650ms total)
T2714 001:131 JLINK_WriteReg(R14, 0x20000001)  returns 0x00 (0000ms, 0650ms total)
T2714 001:131 JLINK_WriteReg(R15 (PC), 0x20000110)  returns 0x00 (0000ms, 0650ms total)
T2714 001:131 JLINK_WriteReg(XPSR, 0x01000000)  returns 0x00 (0000ms, 0650ms total)
T2714 001:131 JLINK_WriteReg(MSP, 0x20002000)  returns 0x00 (0000ms, 0650ms total)
T2714 001:131 JLINK_WriteReg(PSP, 0x20002000)  returns 0x00 (0000ms, 0650ms total)
T2714 001:131 JLINK_WriteReg(CFBP, 0x00000000)  returns 0x00 (0000ms, 0650ms total)
T2714 001:132 JLINK_SetBPEx(Addr = 0x20000000, Type = 0xFFFFFFF2)  returns 0x00000007 (0000ms, 0650ms total)
T2714 001:132 JLINK_Go() -- CPU_ReadMem(4 bytes @ 0xE0001000) (0001ms, 0651ms total)
T2714 001:133 JLINK_IsHalted()  returns FALSE (0000ms, 0651ms total)
T2714 001:135 JLINK_IsHalted() -- CPU_ReadMem(2 bytes @ 0x20000000)  returns TRUE (0002ms, 0653ms total)
T2714 001:137 JLINK_ReadReg(R15 (PC))  returns 0x20000000 (0000ms, 0651ms total)
T2714 001:137 JLINK_ClrBPEx(BPHandle = 0x00000007)  returns 0x00 (0000ms, 0651ms total)
T2714 001:137 JLINK_ReadReg(R0)  returns 0x00000000 (0000ms, 0651ms total)
T2714 001:137 JLINK_WriteReg(R0, 0x00022000)  returns 0x00 (0000ms, 0651ms total)
T2714 001:137 JLINK_WriteReg(R1, 0x00001000)  returns 0x00 (0000ms, 0651ms total)
T2714 001:137 JLINK_WriteReg(R2, 0x000000FF)  returns 0x00 (0000ms, 0651ms total)
T2714 001:137 JLINK_WriteReg(R3, 0x00000000)  returns 0x00 (0000ms, 0651ms total)
T2714 001:137 JLINK_WriteReg(R4, 0x00000000)  returns 0x00 (0000ms, 0651ms total)
T2714 001:137 JLINK_WriteReg(R5, 0x00000000)  returns 0x00 (0000ms, 0651ms total)
T2714 001:137 JLINK_WriteReg(R6, 0x00000000)  returns 0x00 (0000ms, 0651ms total)
T2714 001:137 JLINK_WriteReg(R7, 0x00000000)  returns 0x00 (0000ms, 0651ms total)
T2714 001:137 JLINK_WriteReg(R8, 0x00000000)  returns 0x00 (0000ms, 0651ms total)
T2714 001:137 JLINK_WriteReg(R9, 0x20000224)  returns 0x00 (0000ms, 0651ms total)
T2714 001:137 JLINK_WriteReg(R10, 0x00000000)  returns 0x00 (0000ms, 0651ms total)
T2714 001:137 JLINK_WriteReg(R11, 0x00000000)  returns 0x00 (0000ms, 0651ms total)
T2714 001:137 JLINK_WriteReg(R12, 0x00000000)  returns 0x00 (0000ms, 0651ms total)
T2714 001:137 JLINK_WriteReg(R13 (SP), 0x20002000)  returns 0x00 (0000ms, 0651ms total)
T2714 001:137 JLINK_WriteReg(R14, 0x20000001)  returns 0x00 (0000ms, 0651ms total)
T2714 001:137 JLINK_WriteReg(R15 (PC), 0x20000110)  returns 0x00 (0001ms, 0652ms total)
T2714 001:138 JLINK_WriteReg(XPSR, 0x01000000)  returns 0x00 (0000ms, 0652ms total)
T2714 001:138 JLINK_WriteReg(MSP, 0x20002000)  returns 0x00 (0000ms, 0652ms total)
T2714 001:138 JLINK_WriteReg(PSP, 0x20002000)  returns 0x00 (0000ms, 0652ms total)
T2714 001:138 JLINK_WriteReg(CFBP, 0x00000000)  returns 0x00 (0000ms, 0652ms total)
T2714 001:138 JLINK_SetBPEx(Addr = 0x20000000, Type = 0xFFFFFFF2)  returns 0x00000008 (0000ms, 0652ms total)
T2714 001:138 JLINK_Go() -- CPU_ReadMem(4 bytes @ 0xE0001000) (0001ms, 0653ms total)
T2714 001:139 JLINK_IsHalted()  returns FALSE (0000ms, 0653ms total)
T2714 001:322 JLINK_IsHalted() -- CPU_ReadMem(2 bytes @ 0x20000000)  returns TRUE (0002ms, 0655ms total)
T2714 001:324 JLINK_ReadReg(R15 (PC))  returns 0x20000000 (0000ms, 0653ms total)
T2714 001:324 JLINK_ClrBPEx(BPHandle = 0x00000008)  returns 0x00 (0000ms, 0653ms total)
T2714 001:324 JLINK_ReadReg(R0)  returns 0x00000000 (0000ms, 0653ms total)
T2714 001:325 JLINK_WriteReg(R0, 0x00023000)  returns 0x00 (0000ms, 0653ms total)
T2714 001:325 JLINK_WriteReg(R1, 0x00001000)  returns 0x00 (0000ms, 0653ms total)
T2714 001:325 JLINK_WriteReg(R2, 0x000000FF)  returns 0x00 (0000ms, 0653ms total)
T2714 001:325 JLINK_WriteReg(R3, 0x00000000)  returns 0x00 (0000ms, 0653ms total)
T2714 001:325 JLINK_WriteReg(R4, 0x00000000)  returns 0x00 (0000ms, 0653ms total)
T2714 001:325 JLINK_WriteReg(R5, 0x00000000)  returns 0x00 (0000ms, 0653ms total)
T2714 001:325 JLINK_WriteReg(R6, 0x00000000)  returns 0x00 (0000ms, 0653ms total)
T2714 001:325 JLINK_WriteReg(R7, 0x00000000)  returns 0x00 (0000ms, 0653ms total)
T2714 001:325 JLINK_WriteReg(R8, 0x00000000)  returns 0x00 (0000ms, 0653ms total)
T2714 001:325 JLINK_WriteReg(R9, 0x20000224)  returns 0x00 (0000ms, 0653ms total)
T2714 001:325 JLINK_WriteReg(R10, 0x00000000)  returns 0x00 (0000ms, 0653ms total)
T2714 001:325 JLINK_WriteReg(R11, 0x00000000)  returns 0x00 (0000ms, 0653ms total)
T2714 001:325 JLINK_WriteReg(R12, 0x00000000)  returns 0x00 (0000ms, 0653ms total)
T2714 001:325 JLINK_WriteReg(R13 (SP), 0x20002000)  returns 0x00 (0000ms, 0653ms total)
T2714 001:325 JLINK_WriteReg(R14, 0x20000001)  returns 0x00 (0000ms, 0653ms total)
T2714 001:325 JLINK_WriteReg(R15 (PC), 0x20000110)  returns 0x00 (0000ms, 0653ms total)
T2714 001:325 JLINK_WriteReg(XPSR, 0x01000000)  returns 0x00 (0000ms, 0653ms total)
T2714 001:325 JLINK_WriteReg(MSP, 0x20002000)  returns 0x00 (0000ms, 0653ms total)
T2714 001:325 JLINK_WriteReg(PSP, 0x20002000)  returns 0x00 (0000ms, 0653ms total)
T2714 001:325 JLINK_WriteReg(CFBP, 0x00000000)  returns 0x00 (0000ms, 0653ms total)
T2714 001:325 JLINK_SetBPEx(Addr = 0x20000000, Type = 0xFFFFFFF2)  returns 0x00000009 (0000ms, 0653ms total)
T2714 001:325 JLINK_Go() -- CPU_ReadMem(4 bytes @ 0xE0001000) (0001ms, 0654ms total)
T2714 001:326 JLINK_IsHalted()  returns FALSE (0000ms, 0654ms total)
T2714 001:349 JLINK_IsHalted() -- CPU_ReadMem(2 bytes @ 0x20000000)  returns TRUE (0002ms, 0656ms total)
T2714 001:351 JLINK_ReadReg(R15 (PC))  returns 0x20000000 (0000ms, 0654ms total)
T2714 001:351 JLINK_ClrBPEx(BPHandle = 0x00000009)  returns 0x00 (0000ms, 0654ms total)
T2714 001:351 JLINK_ReadReg(R0)  returns 0x00000000 (0000ms, 0654ms total)
T2714 001:351 JLINK_WriteReg(R0, 0x00024000)  returns 0x00 (0000ms, 0654ms total)
T2714 001:351 JLINK_WriteReg(R1, 0x00001000)  returns 0x00 (0000ms, 0654ms total)
T2714 001:351 JLINK_WriteReg(R2, 0x000000FF)  returns 0x00 (0000ms, 0654ms total)
T2714 001:351 JLINK_WriteReg(R3, 0x00000000)  returns 0x00 (0000ms, 0654ms total)
T2714 001:351 JLINK_WriteReg(R4, 0x00000000)  returns 0x00 (0000ms, 0654ms total)
T2714 001:351 JLINK_WriteReg(R5, 0x00000000)  returns 0x00 (0000ms, 0654ms total)
T2714 001:351 JLINK_WriteReg(R6, 0x00000000)  returns 0x00 (0000ms, 0654ms total)
T2714 001:351 JLINK_WriteReg(R7, 0x00000000)  returns 0x00 (0000ms, 0654ms total)
T2714 001:351 JLINK_WriteReg(R8, 0x00000000)  returns 0x00 (0000ms, 0654ms total)
T2714 001:351 JLINK_WriteReg(R9, 0x20000224)  returns 0x00 (0000ms, 0654ms total)
T2714 001:351 JLINK_WriteReg(R10, 0x00000000)  returns 0x00 (0000ms, 0654ms total)
T2714 001:351 JLINK_WriteReg(R11, 0x00000000)  returns 0x00 (0000ms, 0654ms total)
T2714 001:351 JLINK_WriteReg(R12, 0x00000000)  returns 0x00 (0000ms, 0654ms total)
T2714 001:351 JLINK_WriteReg(R13 (SP), 0x20002000)  returns 0x00 (0000ms, 0654ms total)
T2714 001:351 JLINK_WriteReg(R14, 0x20000001)  returns 0x00 (0000ms, 0654ms total)
T2714 001:351 JLINK_WriteReg(R15 (PC), 0x20000110)  returns 0x00 (0000ms, 0654ms total)
T2714 001:351 JLINK_WriteReg(XPSR, 0x01000000)  returns 0x00 (0000ms, 0654ms total)
T2714 001:351 JLINK_WriteReg(MSP, 0x20002000)  returns 0x00 (0000ms, 0654ms total)
T2714 001:352 JLINK_WriteReg(PSP, 0x20002000)  returns 0x00 (0000ms, 0655ms total)
T2714 001:352 JLINK_WriteReg(CFBP, 0x00000000)  returns 0x00 (0000ms, 0655ms total)
T2714 001:352 JLINK_SetBPEx(Addr = 0x20000000, Type = 0xFFFFFFF2)  returns 0x0000000A (0000ms, 0655ms total)
T2714 001:352 JLINK_Go() -- CPU_ReadMem(4 bytes @ 0xE0001000) (0001ms, 0656ms total)
T2714 001:353 JLINK_IsHalted()  returns FALSE (0000ms, 0656ms total)
T2714 001:358 JLINK_IsHalted() -- CPU_ReadMem(2 bytes @ 0x20000000)  returns TRUE (0002ms, 0658ms total)
T2714 001:360 JLINK_ReadReg(R15 (PC))  returns 0x20000000 (0000ms, 0656ms total)
T2714 001:360 JLINK_ClrBPEx(BPHandle = 0x0000000A)  returns 0x00 (0000ms, 0656ms total)
T2714 001:360 JLINK_ReadReg(R0)  returns 0x00000000 (0000ms, 0656ms total)
T2714 001:360 JLINK_WriteReg(R0, 0x00000001)  returns 0x00 (0000ms, 0656ms total)
T2714 001:360 JLINK_WriteReg(R1, 0x00001000)  returns 0x00 (0000ms, 0656ms total)
T2714 001:360 JLINK_WriteReg(R2, 0x000000FF)  returns 0x00 (0000ms, 0656ms total)
T2714 001:360 JLINK_WriteReg(R3, 0x00000000)  returns 0x00 (0000ms, 0656ms total)
T2714 001:360 JLINK_WriteReg(R4, 0x00000000)  returns 0x00 (0000ms, 0656ms total)
T2714 001:360 JLINK_WriteReg(R5, 0x00000000)  returns 0x00 (0000ms, 0656ms total)
T2714 001:360 JLINK_WriteReg(R6, 0x00000000)  returns 0x00 (0000ms, 0656ms total)
T2714 001:360 JLINK_WriteReg(R7, 0x00000000)  returns 0x00 (0000ms, 0656ms total)
T2714 001:360 JLINK_WriteReg(R8, 0x00000000)  returns 0x00 (0000ms, 0656ms total)
T2714 001:360 JLINK_WriteReg(R9, 0x20000224)  returns 0x00 (0000ms, 0656ms total)
T2714 001:360 JLINK_WriteReg(R10, 0x00000000)  returns 0x00 (0000ms, 0656ms total)
T2714 001:360 JLINK_WriteReg(R11, 0x00000000)  returns 0x00 (0000ms, 0656ms total)
T2714 001:360 JLINK_WriteReg(R12, 0x00000000)  returns 0x00 (0000ms, 0656ms total)
T2714 001:360 JLINK_WriteReg(R13 (SP), 0x20002000)  returns 0x00 (0000ms, 0656ms total)
T2714 001:360 JLINK_WriteReg(R14, 0x20000001)  returns 0x00 (0000ms, 0656ms total)
T2714 001:360 JLINK_WriteReg(R15 (PC), 0x20000084)  returns 0x00 (0000ms, 0656ms total)
T2714 001:360 JLINK_WriteReg(XPSR, 0x01000000)  returns 0x00 (0000ms, 0656ms total)
T2714 001:360 JLINK_WriteReg(MSP, 0x20002000)  returns 0x00 (0001ms, 0657ms total)
T2714 001:361 JLINK_WriteReg(PSP, 0x20002000)  returns 0x00 (0000ms, 0657ms total)
T2714 001:361 JLINK_WriteReg(CFBP, 0x00000000)  returns 0x00 (0000ms, 0657ms total)
T2714 001:361 JLINK_SetBPEx(Addr = 0x20000000, Type = 0xFFFFFFF2)  returns 0x0000000B (0000ms, 0657ms total)
T2714 001:361 JLINK_Go() -- CPU_ReadMem(4 bytes @ 0xE0001000) (0001ms, 0658ms total)
T2714 001:362 JLINK_IsHalted() -- CPU_ReadMem(2 bytes @ 0x20000000)  returns TRUE (0002ms, 0660ms total)
T2714 001:364 JLINK_ReadReg(R15 (PC))  returns 0x20000000 (0000ms, 0658ms total)
T2714 001:364 JLINK_ClrBPEx(BPHandle = 0x0000000B)  returns 0x00 (0000ms, 0658ms total)
T2714 001:364 JLINK_ReadReg(R0)  returns 0x00000000 (0000ms, 0658ms total)
T2714 001:422 JLINK_WriteMem(0x20000000, 0x0228 Bytes, ...) - Data: 00 BE 0A E0 0D 78 2D 06 68 40 08 24 40 00 00 D3 ... -- CPU_WriteMem(552 bytes @ 0x20000000)  returns 0x228 (0003ms, 0661ms total)
T2714 001:425 JLINK_WriteReg(R0, 0x00000000)  returns 0x00 (0000ms, 0661ms total)
T2714 001:425 JLINK_WriteReg(R1, 0x03D09000)  returns 0x00 (0000ms, 0661ms total)
T2714 001:425 JLINK_WriteReg(R2, 0x00000002)  returns 0x00 (0000ms, 0661ms total)
T2714 001:425 JLINK_WriteReg(R3, 0x00000000)  returns 0x00 (0000ms, 0661ms total)
T2714 001:425 JLINK_WriteReg(R4, 0x00000000)  returns 0x00 (0000ms, 0661ms total)
T2714 001:425 JLINK_WriteReg(R5, 0x00000000)  returns 0x00 (0000ms, 0661ms total)
T2714 001:425 JLINK_WriteReg(R6, 0x00000000)  returns 0x00 (0000ms, 0661ms total)
T2714 001:425 JLINK_WriteReg(R7, 0x00000000)  returns 0x00 (0000ms, 0661ms total)
T2714 001:425 JLINK_WriteReg(R8, 0x00000000)  returns 0x00 (0000ms, 0661ms total)
T2714 001:425 JLINK_WriteReg(R9, 0x20000224)  returns 0x00 (0000ms, 0661ms total)
T2714 001:425 JLINK_WriteReg(R10, 0x00000000)  returns 0x00 (0000ms, 0661ms total)
T2714 001:425 JLINK_WriteReg(R11, 0x00000000)  returns 0x00 (0000ms, 0661ms total)
T2714 001:425 JLINK_WriteReg(R12, 0x00000000)  returns 0x00 (0000ms, 0661ms total)
T2714 001:425 JLINK_WriteReg(R13 (SP), 0x20002000)  returns 0x00 (0000ms, 0661ms total)
T2714 001:425 JLINK_WriteReg(R14, 0x20000001)  returns 0x00 (0000ms, 0661ms total)
T2714 001:425 JLINK_WriteReg(R15 (PC), 0x2000003C)  returns 0x00 (0000ms, 0661ms total)
T2714 001:425 JLINK_WriteReg(XPSR, 0x01000000)  returns 0x00 (0000ms, 0661ms total)
T2714 001:426 JLINK_WriteReg(MSP, 0x20002000)  returns 0x00 (0000ms, 0662ms total)
T2714 001:426 JLINK_WriteReg(PSP, 0x20002000)  returns 0x00 (0000ms, 0662ms total)
T2714 001:426 JLINK_WriteReg(CFBP, 0x00000000)  returns 0x00 (0000ms, 0662ms total)
T2714 001:426 JLINK_SetBPEx(Addr = 0x20000000, Type = 0xFFFFFFF2) -- CPU_ReadMem(2 bytes @ 0x20000000)  returns 0x0000000C (0000ms, 0662ms total)
T2714 001:426 JLINK_Go() -- CPU_WriteMem(2 bytes @ 0x20000000) -- CPU_ReadMem(4 bytes @ 0xE0001000) (0002ms, 0664ms total)
T2714 001:428 JLINK_IsHalted() -- CPU_ReadMem(2 bytes @ 0x20000000)  returns TRUE (0003ms, 0667ms total)
T2714 001:431 JLINK_ReadReg(R15 (PC))  returns 0x20000000 (0000ms, 0664ms total)
T2714 001:431 JLINK_ClrBPEx(BPHandle = 0x0000000C)  returns 0x00 (0000ms, 0664ms total)
T2714 001:431 JLINK_ReadReg(R0)  returns 0x00000000 (0000ms, 0664ms total)
T2714 001:431 JLINK_WriteMem(0x20000228, 0x0DD8 Bytes, ...) - Data: 18 55 00 20 8D C4 01 00 95 C4 01 00 97 C4 01 00 ... -- CPU_WriteMem(3544 bytes @ 0x20000228)  returns 0xDD8 (0014ms, 0678ms total)
T2714 001:445 JLINK_WriteMem(0x20001000, 0x0228 Bytes, ...) - Data: 11 74 03 28 F7 D3 68 46 4D DF 00 20 C0 F1 0F 01 ... -- CPU_WriteMem(552 bytes @ 0x20001000)  returns 0x228 (0002ms, 0680ms total)
T2714 001:447 JLINK_WriteReg(R0, 0x0001C000)  returns 0x00 (0000ms, 0680ms total)
T2714 001:447 JLINK_WriteReg(R1, 0x00001000)  returns 0x00 (0000ms, 0680ms total)
T2714 001:447 JLINK_WriteReg(R2, 0x20000228)  returns 0x00 (0000ms, 0680ms total)
T2714 001:447 JLINK_WriteReg(R3, 0x00000000)  returns 0x00 (0000ms, 0680ms total)
T2714 001:447 JLINK_WriteReg(R4, 0x00000000)  returns 0x00 (0000ms, 0680ms total)
T2714 001:447 JLINK_WriteReg(R5, 0x00000000)  returns 0x00 (0000ms, 0680ms total)
T2714 001:447 JLINK_WriteReg(R6, 0x00000000)  returns 0x00 (0000ms, 0680ms total)
T2714 001:447 JLINK_WriteReg(R7, 0x00000000)  returns 0x00 (0000ms, 0680ms total)
T2714 001:447 JLINK_WriteReg(R8, 0x00000000)  returns 0x00 (0000ms, 0680ms total)
T2714 001:447 JLINK_WriteReg(R9, 0x20000224)  returns 0x00 (0000ms, 0680ms total)
T2714 001:447 JLINK_WriteReg(R10, 0x00000000)  returns 0x00 (0000ms, 0680ms total)
T2714 001:447 JLINK_WriteReg(R11, 0x00000000)  returns 0x00 (0000ms, 0680ms total)
T2714 001:447 JLINK_WriteReg(R12, 0x00000000)  returns 0x00 (0000ms, 0680ms total)
T2714 001:447 JLINK_WriteReg(R13 (SP), 0x20002000)  returns 0x00 (0000ms, 0680ms total)
T2714 001:447 JLINK_WriteReg(R14, 0x20000001)  returns 0x00 (0000ms, 0680ms total)
T2714 001:447 JLINK_WriteReg(R15 (PC), 0x2000014C)  returns 0x00 (0000ms, 0680ms total)
T2714 001:447 JLINK_WriteReg(XPSR, 0x01000000)  returns 0x00 (0000ms, 0680ms total)
T2714 001:447 JLINK_WriteReg(MSP, 0x20002000)  returns 0x00 (0000ms, 0680ms total)
T2714 001:447 JLINK_WriteReg(PSP, 0x20002000)  returns 0x00 (0000ms, 0680ms total)
T2714 001:447 JLINK_WriteReg(CFBP, 0x00000000)  returns 0x00 (0001ms, 0681ms total)
T2714 001:448 JLINK_SetBPEx(Addr = 0x20000000, Type = 0xFFFFFFF2)  returns 0x0000000D (0000ms, 0681ms total)
T2714 001:448 JLINK_Go() -- CPU_ReadMem(4 bytes @ 0xE0001000) (0001ms, 0682ms total)
T2714 001:449 JLINK_IsHalted()  returns FALSE (0000ms, 0682ms total)
T2714 001:486 JLINK_IsHalted()  returns FALSE (0000ms, 0682ms total)
T2714 001:488 JLINK_IsHalted()  returns FALSE (0000ms, 0682ms total)
T2714 001:490 JLINK_IsHalted()  returns FALSE (0000ms, 0682ms total)
T2714 001:493 JLINK_IsHalted()  returns FALSE (0000ms, 0682ms total)
T2714 001:511 JLINK_IsHalted()  returns FALSE (0000ms, 0682ms total)
T2714 001:513 JLINK_IsHalted()  returns FALSE (0000ms, 0682ms total)
T2714 001:515 JLINK_IsHalted()  returns FALSE (0000ms, 0682ms total)
T2714 001:518 JLINK_IsHalted()  returns FALSE (0000ms, 0682ms total)
T2714 001:520 JLINK_IsHalted() -- CPU_ReadMem(2 bytes @ 0x20000000)  returns TRUE (0002ms, 0684ms total)
T2714 001:522 JLINK_ReadReg(R15 (PC))  returns 0x20000000 (0000ms, 0682ms total)
T2714 001:522 JLINK_ClrBPEx(BPHandle = 0x0000000D)  returns 0x00 (0000ms, 0682ms total)
T2714 001:522 JLINK_ReadReg(R0)  returns 0x00000000 (0000ms, 0682ms total)
T2714 001:522 JLINK_WriteMem(0x20000228, 0x0DD8 Bytes, ...) - Data: 04 48 01 68 04 4A 01 F4 E0 61 11 43 01 60 BF F3 ... -- CPU_WriteMem(3544 bytes @ 0x20000228)  returns 0xDD8 (0014ms, 0696ms total)
T2714 001:536 JLINK_WriteMem(0x20001000, 0x0228 Bytes, ...) - Data: AC 28 00 20 10 B5 04 46 06 F0 B8 FC 00 28 02 D0 ... -- CPU_WriteMem(552 bytes @ 0x20001000)  returns 0x228 (0003ms, 0699ms total)
T2714 001:539 JLINK_WriteReg(R0, 0x0001D000)  returns 0x00 (0000ms, 0699ms total)
T2714 001:539 JLINK_WriteReg(R1, 0x00001000)  returns 0x00 (0000ms, 0699ms total)
T2714 001:539 JLINK_WriteReg(R2, 0x20000228)  returns 0x00 (0000ms, 0699ms total)
T2714 001:539 JLINK_WriteReg(R3, 0x00000000)  returns 0x00 (0000ms, 0699ms total)
T2714 001:539 JLINK_WriteReg(R4, 0x00000000)  returns 0x00 (0000ms, 0699ms total)
T2714 001:539 JLINK_WriteReg(R5, 0x00000000)  returns 0x00 (0000ms, 0699ms total)
T2714 001:539 JLINK_WriteReg(R6, 0x00000000)  returns 0x00 (0000ms, 0699ms total)
T2714 001:539 JLINK_WriteReg(R7, 0x00000000)  returns 0x00 (0000ms, 0699ms total)
T2714 001:539 JLINK_WriteReg(R8, 0x00000000)  returns 0x00 (0000ms, 0699ms total)
T2714 001:539 JLINK_WriteReg(R9, 0x20000224)  returns 0x00 (0000ms, 0699ms total)
T2714 001:539 JLINK_WriteReg(R10, 0x00000000)  returns 0x00 (0000ms, 0699ms total)
T2714 001:539 JLINK_WriteReg(R11, 0x00000000)  returns 0x00 (0000ms, 0699ms total)
T2714 001:539 JLINK_WriteReg(R12, 0x00000000)  returns 0x00 (0000ms, 0699ms total)
T2714 001:539 JLINK_WriteReg(R13 (SP), 0x20002000)  returns 0x00 (0000ms, 0699ms total)
T2714 001:539 JLINK_WriteReg(R14, 0x20000001)  returns 0x00 (0000ms, 0699ms total)
T2714 001:539 JLINK_WriteReg(R15 (PC), 0x2000014C)  returns 0x00 (0000ms, 0699ms total)
T2714 001:539 JLINK_WriteReg(XPSR, 0x01000000)  returns 0x00 (0000ms, 0699ms total)
T2714 001:539 JLINK_WriteReg(MSP, 0x20002000)  returns 0x00 (0000ms, 0699ms total)
T2714 001:539 JLINK_WriteReg(PSP, 0x20002000)  returns 0x00 (0000ms, 0699ms total)
T2714 001:539 JLINK_WriteReg(CFBP, 0x00000000)  returns 0x00 (0000ms, 0699ms total)
T2714 001:539 JLINK_SetBPEx(Addr = 0x20000000, Type = 0xFFFFFFF2)  returns 0x0000000E (0000ms, 0699ms total)
T2714 001:539 JLINK_Go() -- CPU_ReadMem(4 bytes @ 0xE0001000) (0002ms, 0701ms total)
T2714 001:541 JLINK_IsHalted()  returns FALSE (0000ms, 0701ms total)
T2714 001:544 JLINK_IsHalted()  returns FALSE (0000ms, 0701ms total)
T2714 001:546 JLINK_IsHalted()  returns FALSE (0000ms, 0701ms total)
T2714 001:548 JLINK_IsHalted()  returns FALSE (0000ms, 0701ms total)
T2714 001:551 JLINK_IsHalted()  returns FALSE (0000ms, 0701ms total)
T2714 001:553 JLINK_IsHalted()  returns FALSE (0000ms, 0701ms total)
T2714 001:558 JLINK_IsHalted()  returns FALSE (0000ms, 0701ms total)
T2714 001:560 JLINK_IsHalted()  returns FALSE (0000ms, 0701ms total)
T2714 001:562 JLINK_IsHalted()  returns FALSE (0000ms, 0701ms total)
T2714 001:564 JLINK_IsHalted()  returns FALSE (0000ms, 0701ms total)
T2714 001:566 JLINK_IsHalted()  returns FALSE (0000ms, 0701ms total)
T2714 001:568 JLINK_IsHalted()  returns FALSE (0000ms, 0701ms total)
T2714 001:570 JLINK_IsHalted()  returns FALSE (0000ms, 0701ms total)
T2714 001:572 JLINK_IsHalted()  returns FALSE (0000ms, 0701ms total)
T2714 001:574 JLINK_IsHalted()  returns FALSE (0000ms, 0701ms total)
T2714 001:576 JLINK_IsHalted()  returns FALSE (0000ms, 0701ms total)
T2714 001:578 JLINK_IsHalted()  returns FALSE (0000ms, 0701ms total)
T2714 001:580 JLINK_IsHalted()  returns FALSE (0001ms, 0702ms total)
T2714 001:583 JLINK_IsHalted()  returns FALSE (0000ms, 0701ms total)
T2714 001:585 JLINK_IsHalted()  returns FALSE (0000ms, 0701ms total)
T2714 001:587 JLINK_IsHalted()  returns FALSE (0000ms, 0701ms total)
T2714 001:589 JLINK_IsHalted()  returns FALSE (0000ms, 0701ms total)
T2714 001:591 JLINK_IsHalted()  returns FALSE (0000ms, 0701ms total)
T2714 001:593 JLINK_IsHalted()  returns FALSE (0000ms, 0701ms total)
T2714 001:595 JLINK_IsHalted()  returns FALSE (0000ms, 0701ms total)
T2714 001:597 JLINK_IsHalted()  returns FALSE (0000ms, 0701ms total)
T2714 001:599 JLINK_IsHalted()  returns FALSE (0000ms, 0701ms total)
T2714 001:614 JLINK_IsHalted() -- CPU_ReadMem(2 bytes @ 0x20000000)  returns TRUE (0002ms, 0703ms total)
T2714 001:616 JLINK_ReadReg(R15 (PC))  returns 0x20000000 (0000ms, 0701ms total)
T2714 001:616 JLINK_ClrBPEx(BPHandle = 0x0000000E)  returns 0x00 (0000ms, 0701ms total)
T2714 001:616 JLINK_ReadReg(R0)  returns 0x00000000 (0000ms, 0701ms total)
T2714 001:616 JLINK_WriteMem(0x20000228, 0x0DD8 Bytes, ...) - Data: 20 46 BD E8 10 40 FF F7 D1 BB 00 00 F4 24 00 20 ... -- CPU_WriteMem(3544 bytes @ 0x20000228)  returns 0xDD8 (0015ms, 0716ms total)
T2714 001:631 JLINK_WriteMem(0x20001000, 0x0228 Bytes, ...) - Data: D2 B2 4A 70 02 2A 00 D1 4B 70 08 4A 4B 78 18 32 ... -- CPU_WriteMem(552 bytes @ 0x20001000)  returns 0x228 (0003ms, 0719ms total)
T2714 001:634 JLINK_WriteReg(R0, 0x0001E000)  returns 0x00 (0000ms, 0719ms total)
T2714 001:634 JLINK_WriteReg(R1, 0x00001000)  returns 0x00 (0000ms, 0719ms total)
T2714 001:634 JLINK_WriteReg(R2, 0x20000228)  returns 0x00 (0000ms, 0719ms total)
T2714 001:634 JLINK_WriteReg(R3, 0x00000000)  returns 0x00 (0000ms, 0719ms total)
T2714 001:634 JLINK_WriteReg(R4, 0x00000000)  returns 0x00 (0000ms, 0719ms total)
T2714 001:634 JLINK_WriteReg(R5, 0x00000000)  returns 0x00 (0000ms, 0719ms total)
T2714 001:634 JLINK_WriteReg(R6, 0x00000000)  returns 0x00 (0000ms, 0719ms total)
T2714 001:634 JLINK_WriteReg(R7, 0x00000000)  returns 0x00 (0000ms, 0719ms total)
T2714 001:634 JLINK_WriteReg(R8, 0x00000000)  returns 0x00 (0000ms, 0719ms total)
T2714 001:634 JLINK_WriteReg(R9, 0x20000224)  returns 0x00 (0000ms, 0719ms total)
T2714 001:634 JLINK_WriteReg(R10, 0x00000000)  returns 0x00 (0000ms, 0719ms total)
T2714 001:634 JLINK_WriteReg(R11, 0x00000000)  returns 0x00 (0000ms, 0719ms total)
T2714 001:634 JLINK_WriteReg(R12, 0x00000000)  returns 0x00 (0000ms, 0719ms total)
T2714 001:634 JLINK_WriteReg(R13 (SP), 0x20002000)  returns 0x00 (0000ms, 0719ms total)
T2714 001:634 JLINK_WriteReg(R14, 0x20000001)  returns 0x00 (0000ms, 0719ms total)
T2714 001:634 JLINK_WriteReg(R15 (PC), 0x2000014C)  returns 0x00 (0000ms, 0719ms total)
T2714 001:634 JLINK_WriteReg(XPSR, 0x01000000)  returns 0x00 (0000ms, 0719ms total)
T2714 001:634 JLINK_WriteReg(MSP, 0x20002000)  returns 0x00 (0000ms, 0719ms total)
T2714 001:634 JLINK_WriteReg(PSP, 0x20002000)  returns 0x00 (0000ms, 0719ms total)
T2714 001:634 JLINK_WriteReg(CFBP, 0x00000000)  returns 0x00 (0000ms, 0719ms total)
T2714 001:634 JLINK_SetBPEx(Addr = 0x20000000, Type = 0xFFFFFFF2)  returns 0x0000000F (0000ms, 0719ms total)
T2714 001:634 JLINK_Go() -- CPU_ReadMem(4 bytes @ 0xE0001000) (0002ms, 0721ms total)
T2714 001:636 JLINK_IsHalted()  returns FALSE (0000ms, 0721ms total)
T2714 001:639 JLINK_IsHalted()  returns FALSE (0000ms, 0721ms total)
T2714 001:641 JLINK_IsHalted()  returns FALSE (0000ms, 0721ms total)
T2714 001:643 JLINK_IsHalted()  returns FALSE (0000ms, 0721ms total)
T2714 001:645 JLINK_IsHalted()  returns FALSE (0000ms, 0721ms total)
T2714 001:647 JLINK_IsHalted()  returns FALSE (0000ms, 0721ms total)
T2714 001:649 JLINK_IsHalted()  returns FALSE (0000ms, 0721ms total)
T2714 001:651 JLINK_IsHalted()  returns FALSE (0000ms, 0721ms total)
T2714 001:653 JLINK_IsHalted()  returns FALSE (0000ms, 0721ms total)
T2714 001:655 JLINK_IsHalted()  returns FALSE (0000ms, 0721ms total)
T2714 001:657 JLINK_IsHalted()  returns FALSE (0000ms, 0721ms total)
T2714 001:659 JLINK_IsHalted()  returns FALSE (0000ms, 0721ms total)
T2714 001:661 JLINK_IsHalted()  returns FALSE (0000ms, 0721ms total)
T2714 001:663 JLINK_IsHalted()  returns FALSE (0000ms, 0721ms total)
T2714 001:665 JLINK_IsHalted()  returns FALSE (0000ms, 0721ms total)
T2714 001:667 JLINK_IsHalted()  returns FALSE (0000ms, 0721ms total)
T2714 001:669 JLINK_IsHalted()  returns FALSE (0000ms, 0721ms total)
T2714 001:671 JLINK_IsHalted()  returns FALSE (0000ms, 0721ms total)
T2714 001:673 JLINK_IsHalted()  returns FALSE (0000ms, 0721ms total)
T2714 001:675 JLINK_IsHalted()  returns FALSE (0000ms, 0721ms total)
T2714 001:677 JLINK_IsHalted()  returns FALSE (0000ms, 0721ms total)
T2714 001:679 JLINK_IsHalted()  returns FALSE (0000ms, 0721ms total)
T2714 001:682 JLINK_IsHalted()  returns FALSE (0000ms, 0721ms total)
T2714 001:684 JLINK_IsHalted()  returns FALSE (0000ms, 0721ms total)
T2714 001:686 JLINK_IsHalted()  returns FALSE (0000ms, 0721ms total)
T2714 001:688 JLINK_IsHalted()  returns FALSE (0000ms, 0721ms total)
T2714 001:690 JLINK_IsHalted()  returns FALSE (0000ms, 0721ms total)
T2714 001:692 JLINK_IsHalted()  returns FALSE (0000ms, 0721ms total)
T2714 001:694 JLINK_IsHalted()  returns FALSE (0000ms, 0721ms total)
T2714 001:697 JLINK_IsHalted()  returns FALSE (0000ms, 0721ms total)
T2714 001:699 JLINK_IsHalted()  returns FALSE (0000ms, 0721ms total)
T2714 001:701 JLINK_IsHalted()  returns FALSE (0000ms, 0721ms total)
T2714 001:703 JLINK_IsHalted()  returns FALSE (0000ms, 0721ms total)
T2714 001:705 JLINK_IsHalted()  returns FALSE (0000ms, 0721ms total)
T2714 001:707 JLINK_IsHalted() -- CPU_ReadMem(2 bytes @ 0x20000000)  returns TRUE (0002ms, 0723ms total)
T2714 001:709 JLINK_ReadReg(R15 (PC))  returns 0x20000000 (0000ms, 0721ms total)
T2714 001:709 JLINK_ClrBPEx(BPHandle = 0x0000000F)  returns 0x00 (0000ms, 0721ms total)
T2714 001:709 JLINK_ReadReg(R0)  returns 0x00000000 (0000ms, 0721ms total)
T2714 001:709 JLINK_WriteMem(0x20000228, 0x0DD8 Bytes, ...) - Data: 8D F8 04 10 80 68 02 90 24 E0 02 21 F0 E7 C1 89 ... -- CPU_WriteMem(3544 bytes @ 0x20000228)  returns 0xDD8 (0014ms, 0735ms total)
T2714 001:723 JLINK_WriteMem(0x20001000, 0x0228 Bytes, ...) - Data: 00 EB 40 00 05 EB 80 00 D0 F8 12 10 21 60 C1 8A ... -- CPU_WriteMem(552 bytes @ 0x20001000)  returns 0x228 (0002ms, 0737ms total)
T2714 001:725 JLINK_WriteReg(R0, 0x0001F000)  returns 0x00 (0000ms, 0737ms total)
T2714 001:725 JLINK_WriteReg(R1, 0x00001000)  returns 0x00 (0000ms, 0737ms total)
T2714 001:725 JLINK_WriteReg(R2, 0x20000228)  returns 0x00 (0000ms, 0737ms total)
T2714 001:725 JLINK_WriteReg(R3, 0x00000000)  returns 0x00 (0000ms, 0737ms total)
T2714 001:725 JLINK_WriteReg(R4, 0x00000000)  returns 0x00 (0000ms, 0737ms total)
T2714 001:725 JLINK_WriteReg(R5, 0x00000000)  returns 0x00 (0000ms, 0737ms total)
T2714 001:725 JLINK_WriteReg(R6, 0x00000000)  returns 0x00 (0000ms, 0737ms total)
T2714 001:725 JLINK_WriteReg(R7, 0x00000000)  returns 0x00 (0000ms, 0737ms total)
T2714 001:726 JLINK_WriteReg(R8, 0x00000000)  returns 0x00 (0000ms, 0738ms total)
T2714 001:726 JLINK_WriteReg(R9, 0x20000224)  returns 0x00 (0000ms, 0738ms total)
T2714 001:726 JLINK_WriteReg(R10, 0x00000000)  returns 0x00 (0000ms, 0738ms total)
T2714 001:726 JLINK_WriteReg(R11, 0x00000000)  returns 0x00 (0000ms, 0738ms total)
T2714 001:726 JLINK_WriteReg(R12, 0x00000000)  returns 0x00 (0000ms, 0738ms total)
T2714 001:726 JLINK_WriteReg(R13 (SP), 0x20002000)  returns 0x00 (0000ms, 0738ms total)
